! Saved from nanovna library
# Hz S RI R 50
     50000	0.99984619306	-0.00023991854	
   6049950	0.99995780422	-0.00918639151	
  12049900	0.99941104060	-0.01894498352	
  18049850	0.99866990140	-0.02675581826	
  24049800	0.99802037824	-0.03494179882	
  30049750	0.99738709605	-0.04396100935	
  36049700	0.99692992544	-0.05311057327	
  42049650	0.99628106661	-0.06180008416	
  48049600	0.99531255723	-0.07033892332	
  54049550	0.99347346722	-0.07899924996	
  60049500	0.99062907105	-0.08675099953	
  66049450	0.98981160986	-0.09606691256	
  72049400	0.98741243354	-0.10435904378	
  78049350	0.98621574475	-0.11394130086	
  84049300	0.98585955642	-0.12225086518	
  90049250	0.98396424773	-0.13080411732	
  96049200	0.98259048169	-0.13854512905	
 102049150	0.98075200690	-0.14760057164	
 108049100	0.97980535392	-0.15580776769	
 114049050	0.97778687633	-0.16406599053	
 120049000	0.97609172096	-0.17275297005	
 126048950	0.97429930088	-0.18111402334	
 132048900	0.97266253491	-0.18967353617	
 138048850	0.97079982183	-0.19831527892	
 144048800	0.96856184493	-0.20621877519	
 150048750	0.96630940935	-0.21464074920	
 156048700	0.96179028684	-0.22296715282	
 162048650	0.95228770571	-0.22948734591	
 168048600	0.94441050975	-0.23631339024	
 174048550	0.94165438720	-0.24421271967	
 180048500	0.93816125747	-0.25144587981	
 186048450	0.93656989604	-0.25949798314	
 192048400	0.93390191368	-0.26783989430	
 198048350	0.93662482266	-0.27668833865	
 204048300	0.93720797896	-0.28583742428	
 210048250	0.93668616680	-0.29441718028	
 216048200	0.93473961870	-0.30270476434	
 222048150	0.93396965111	-0.31109112720	
 228048100	0.93277462149	-0.31879359014	
 234048050	0.92962957154	-0.32695148918	
 240048000	0.92847227689	-0.33550499283	
 246047950	0.92597219600	-0.34374425448	
 252047900	0.92346453936	-0.35179802742	
 258047850	0.92089632833	-0.35974578728	
 264047800	0.91808096397	-0.36717954018	
 270047750	0.91560913175	-0.37458996833	
 276047700	0.91262721068	-0.38142331989	
 282047650	0.90962345588	-0.38821447306	
 288047600	0.90555575937	-0.39590405103	
 294047550	0.90235355561	-0.40299306247	
 300047500	0.89852463636	-0.41007493510	
 306047450	0.89554916648	-0.41766958386	
 312047400	0.89160775734	-0.42431902112	
 318047350	0.88830962752	-0.43120461906	
 324047300	0.88461778343	-0.43803449054	
 330047250	0.87931152083	-0.44430321659	
 336047200	0.87370240215	-0.45189862144	
 342047150	0.86906444492	-0.46049507543	
 348047100	0.86379578290	-0.46848511719	
 354047050	0.85933961996	-0.47581687454	
 360047000	0.85515337429	-0.48333851329	
 366046950	0.85073340357	-0.48983323782	
 372046900	0.84542023154	-0.49564694563	
 378046850	0.83923672460	-0.50187767732	
 384046800	0.83580877748	-0.50925810627	
 390046750	0.83112943341	-0.51664935091	
 396046700	0.82611829470	-0.52369316794	
 402046650	0.82035298355	-0.53002842098	
 408046600	0.81545220646	-0.53640683547	
 414046550	0.81046978377	-0.54351273258	
 420046500	0.80551326872	-0.55004580785	
 426046450	0.80116496812	-0.55729096896	
 432046400	0.79591326355	-0.56435321272	
 438046350	0.79065540014	-0.57137664244	
 444046300	0.78256453212	-0.57497518133	
 450046250	0.76986666574	-0.57527057284	
 456046200	0.75748395351	-0.57536599337	
 462046150	0.75211884119	-0.58084588177	
 468046100	0.74487921491	-0.58641488773	
 474046050	0.73958369138	-0.59352266166	
 480046000	0.73247022022	-0.59786544980	
 486045950	0.72711344265	-0.60359702689	
 492045900	0.72025636129	-0.60806266808	
 498045850	0.71700587826	-0.61637305858	
 504045800	0.70806278379	-0.61611306716	
 510045750	0.70660035611	-0.62770093137	
 516045700	0.70188778442	-0.63416685415	
 522045650	0.70014499312	-0.64509972805	
 528045600	0.69485449438	-0.65283983041	
 534045550	0.69064589453	-0.65984393994	
 540045500	0.68862643650	-0.67018850147	
 546045450	0.68504159646	-0.67944638216	
 552045400	0.68220599501	-0.68753438873	
 558045350	0.67824446275	-0.69616052943	
 564045300	0.67343934860	-0.70204990513	
 570045250	0.66852318073	-0.70900816545	
 576045200	0.66332181484	-0.71369510287	
 582045150	0.65789030425	-0.71932527026	
 588045100	0.65335912441	-0.72421136391	
 594045050	0.64910643469	-0.73016680232	
 600045000	0.64430833136	-0.73611910969	
 606044950	0.63802618089	-0.73943164100	
 612044900	0.63222594374	-0.74462240554	
 618044850	0.62510426033	-0.74938748092	
 624044800	0.61776038082	-0.75415792787	
 630044750	0.61057293516	-0.75806979415	
 636044700	0.60303195036	-0.76176688396	
 642044650	0.59514338482	-0.76629695638	
 648044600	0.58721354027	-0.77047989855	
 654044550	0.57986475006	-0.77424963080	
 660044500	0.57210518094	-0.77742063457	
 666044450	0.56257176777	-0.77991889605	
 672044400	0.55447204166	-0.78043201730	
 678044350	0.54516654664	-0.78121846357	
 684044300	0.53578872634	-0.78373692504	
 690044250	0.52643239786	-0.77477073012	
 696044200	0.51751679502	-0.77776319671	
 702044150	0.50820942938	-0.78283483645	
 708044100	0.49916398334	-0.79022759972	
 714044050	0.49041445255	-0.79475636048	
 720044000	0.48287441688	-0.79910696315	
 726043950	0.47468099677	-0.80401055566	
 732043900	0.46687377335	-0.80755387186	
 738043850	0.45884270065	-0.81315718094	
 744043800	0.45300540118	-0.81920246855	
 750043750	0.44518148758	-0.82505094351	
 756043700	0.43852669707	-0.83168676709	
 762043650	0.42968667413	-0.82648113520	
 768043600	0.42052008559	-0.81995653972	
 774043550	0.41337980491	-0.83375802477	
 780043500	0.40734026142	-0.84249711659	
 786043450	0.39988826246	-0.84621138992	
 792043400	0.39191141876	-0.85314622913	
 798043350	0.38538166635	-0.85947196166	
 804043300	0.37815839575	-0.86281168018	
 810043250	0.37182028688	-0.86805808056	
 816043200	0.36406019473	-0.87398605031	
 822043150	0.35931297549	-0.87887440591	
 828043100	0.35151599221	-0.88457110318	
 834043050	0.34429090518	-0.88894168313	
 840043000	0.33688744602	-0.89119519026	
 846042950	0.33060490919	-0.89476934555	
 852042900	0.32345956812	-0.89709873758	
 858042850	0.31496364414	-0.89562835111	
 864042800	0.30574673391	-0.89306223290	
 870042750	0.29893797939	-0.89347443059	
 876042700	0.29139216204	-0.89245809622	
 882042650	0.28344766724	-0.89295169671	
 888042600	0.27467540634	-0.90157251607	
 894042550	0.26700093354	-0.90776328931	
 900042500	0.25891692800	-0.91205342909	
 906042450	0.25147445119	-0.91853817649	
 912042400	0.24497133031	-0.92209273119	
 918042350	0.23741935323	-0.92563824981	
 924042300	0.22981707018	-0.92755601418	
 930042250	0.22152563491	-0.93045043586	
 936042200	0.21265705833	-0.93130161482	
 942042150	0.20581853806	-0.93242051175	
 948042100	0.19714147547	-0.93137859948	
 954042050	0.19066472209	-0.93134251531	
 960042000	0.18201369570	-0.93125798258	
 966041950	0.17249304657	-0.93070312486	
 972041900	0.16303841550	-0.93054663575	
 978041850	0.15607844931	-0.93020372808	
 984041800	0.14753466746	-0.92806663747	
 990041750	0.14092558335	-0.92796661211	
 996041700	0.13096635203	-0.92624597596	
1002041650	0.12257534792	-0.92462884299	
1008041600	0.11463794708	-0.92366131700	
1014041550	0.10728172842	-0.92222853712	
1020041500	0.09824757355	-0.92112712989	
1026041450	0.09082077041	-0.92037402648	
1032041400	0.08193203658	-0.92020703919	
1038041350	0.07266764048	-0.92246498732	
1044041300	0.06415073704	-0.92361624330	
1050041250	0.05541791526	-0.92314068027	
1056041200	0.04654833272	-0.92358477648	
1062041150	0.03827914160	-0.92328511608	
1068041100	0.02963919832	-0.92313452169	
1074041050	0.02105312060	-0.92308433118	
1080041000	0.01242063476	-0.92209749874	
1086040950	0.00227745294	-0.92200079613	
1092040900	-0.00742972453	-0.92291661612	
1098040850	-0.01706993793	-0.92397466984	
1104040800	-0.02468214891	-0.92103942124	
1110040750	-0.02012150700	-0.90040413883	
1116040700	-0.01321551422	-0.88406756727	
1122040650	-0.03029950233	-0.89056696780	
1128040600	-0.04001582322	-0.89108813645	
1134040550	-0.05558105051	-0.89767661711	
1140040500	-0.06946302054	-0.90405828345	
1146040450	-0.08283083980	-0.90914227561	
1152040400	-0.09379997432	-0.91105979599	
1158040350	-0.10415758959	-0.91451959940	
1164040300	-0.11486607440	-0.91572882128	
1170040250	-0.12207923391	-0.91423883331	
1176040200	-0.12966654083	-0.91319652931	
1182040150	-0.13802763616	-0.91237876326	
1188040100	-0.15022283510	-0.91483528849	
1194040050	-0.16098078155	-0.91544295936	
1200040000	-0.17015789362	-0.91528759439	
1206039950	-0.17885912506	-0.91433099297	
1212039900	-0.18770684833	-0.91314054431	
1218039850	-0.19671982968	-0.91091892879	
1224039800	-0.19094062645	-0.90472387396	
1230039750	-0.21731961178	-0.90983988817	
1236039700	-0.22704931685	-0.90918780155	
1242039650	-0.23657277608	-0.90894063952	
1248039600	-0.24575781534	-0.90571029684	
1254039550	-0.25449782083	-0.90459542243	
1260039500	-0.26353542546	-0.90207512018	
1266039450	-0.27261553932	-0.89993160260	
1272039400	-0.28057947524	-0.89730199713	
1278039350	-0.28938498642	-0.89398894825	
1284039300	-0.29751374544	-0.89089736784	
1290039250	-0.30526596943	-0.88668142111	
1296039200	-0.31241841704	-0.88261312192	
1302039150	-0.31846703064	-0.87736654761	
1308039100	-0.32197852065	-0.87022679575	
1314039050	-0.31768569267	-0.86147544789	
1320039000	-0.31925582722	-0.85553105344	
1326038950	-0.31871463179	-0.84833802901	
1332038900	-0.32171271332	-0.84336960004	
1338038850	-0.33342514447	-0.83900058996	
1344038800	-0.33533682481	-0.83259949596	
1350038750	-0.33639616433	-0.82609811641	
1356038700	-0.34420792014	-0.82262410655	
1362038650	-0.34546372470	-0.81749525800	
1368038600	-0.36385275184	-0.81272143343	
1374038550	-0.37578147171	-0.81069667981	
1380038500	-0.39240167266	-0.80680387421	
1386038450	-0.40287612075	-0.80310443351	
1392038400	-0.40925872382	-0.79782172806	
1398038350	-0.41512640507	-0.78817438923	
1404038300	-0.42516335844	-0.78423446677	
1410038250	-0.43526885086	-0.78060568478	
1416038200	-0.44784931730	-0.77767592151	
1422038150	-0.46015334528	-0.77305164773	
1428038100	-0.47093162023	-0.77142203423	
1434038050	-0.48102483036	-0.76707133137	
1440038000	-0.49170764771	-0.76244775868	
1446037950	-0.50214151297	-0.75880274523	
1452037900	-0.51360753771	-0.75431935129	
1458037850	-0.52294656568	-0.75042348177	
1464037800	-0.53322846307	-0.74492935370	
1470037750	-0.53459094607	-0.73652499254	
1476037700	-0.53301790099	-0.73013525582	
1482037650	-0.53829890653	-0.72643161268	
1488037600	-0.55662212274	-0.72082013735	
1494037550	-0.56893331371	-0.71471314843	
1500037500	-0.57946721602	-0.70889191450	
1506037450	-0.59223251624	-0.70278357409	
1512037400	-0.60599037606	-0.69779505203	
1518037350	-0.61659811684	-0.69229071918	
1524037300	-0.62599975777	-0.68647647530	
1530037250	-0.63477809841	-0.68096052856	
1536037200	-0.64237168708	-0.67278673723	
1542037150	-0.65017964898	-0.66685227904	
1548037100	-0.65739035102	-0.66054113388	
1554037050	-0.66441098749	-0.65253191261	
1560037000	-0.66976309574	-0.64614300664	
1566036950	-0.67606529275	-0.63796222409	
1572036900	-0.68202866049	-0.62963492381	
1578036850	-0.68784304698	-0.62163350108	
1584036800	-0.69088152200	-0.61296246631	
1590036750	-0.69398249956	-0.60342742695	
1596036700	-0.69862221018	-0.59446928801	
1602036650	-0.70484969804	-0.58604350883	
1608036600	-0.70041821703	-0.57977848257	
1614036550	-0.70042366635	-0.57550978459	
1620036500	-0.70656369842	-0.56052587733	
1626036450	-0.71251562552	-0.55096398450	
1632036400	-0.70511608287	-0.54574600567	
1638036350	-0.71335338398	-0.53505844902	
1644036300	-0.71087931301	-0.52678944390	
1650036250	-0.70433059582	-0.52162736331	
1656036200	-0.71455613416	-0.50736997266	
1662036150	-0.71296789337	-0.49826196038	
1668036100	-0.71208904488	-0.48999305982	
1674036050	-0.70959916636	-0.47916876402	
1680036000	-0.71769214412	-0.46698754259	
1686035950	-0.72303754546	-0.45306645891	
1692035900	-0.72965420054	-0.43972017243	
1698035850	-0.73696714858	-0.42236487831	
1704035800	-0.74803740362	-0.40472890943	
1710035750	-0.75973816099	-0.39028364591	
1716035700	-0.76235280154	-0.37552659941	
1722035650	-0.76526343790	-0.36188349288	
1728035600	-0.77120062808	-0.34792001982	
1734035550	-0.77677695194	-0.33568089876	
1740035500	-0.78280847801	-0.32262030634	
1746035450	-0.78936068269	-0.30932555871	
1752035400	-0.79662718141	-0.29705884909	
1758035350	-0.79825893283	-0.28352067546	
1764035300	-0.80347944422	-0.27005110780	
1770035250	-0.80549274572	-0.25479054958	
1776035200	-0.80728806555	-0.24258630247	
1782035150	-0.80914978893	-0.22754965760	
1788035100	-0.80737078935	-0.21405005726	
1794035050	-0.80069590417	-0.20222771159	
1800035000	-0.80268089266	-0.19002308006	
1806034950	-0.80056436968	-0.17495157966	
1812034900	-0.80082719597	-0.16517697722	
1818034850	-0.79830447987	-0.14814035843	
1824034800	-0.79346694621	-0.13226004195	
1830034750	-0.78973047987	-0.12430628753	
1836034700	-0.78274296844	-0.11192880258	
1842034650	-0.77613019222	-0.10110133978	
1848034600	-0.76462390237	-0.09423256872	
1854034550	-0.75539668117	-0.08532920022	
1860034500	-0.74588287604	-0.07603501846	
1866034450	-0.73633162340	-0.06933652278	
1872034400	-0.73154084312	-0.07043115190	
1878034350	-0.72339378902	-0.06665398136	
1884034300	-0.71853726714	-0.06748519152	
1890034250	-0.70847451876	-0.06727146222	
1896034200	-0.69799951681	-0.07000817921	
1902034150	-0.68796624872	-0.07451024367	
1908034100	-0.67377662381	-0.07824121639	
1914034050	-0.65290218480	-0.07914317829	
1920034000	-0.64514487893	-0.08596092183	
1926033950	-0.61987942153	-0.08710686408	
1932033900	-0.60363421115	-0.08876190642	
1938033850	-0.58759044656	-0.08810576728	
1944033800	-0.57554154323	-0.09049496071	
1950033750	-0.56623957490	-0.09110311527	
1956033700	-0.54916211369	-0.08275295974	
1962033650	-0.53948329963	-0.08561768957	
1968033600	-0.53432485446	-0.11458830679	
1974033550	-0.51814967328	-0.11949097340	
1980033500	-0.51147670059	-0.13171199983	
1986033450	-0.49341095741	-0.12036717112	
1992033400	-0.48311343984	-0.12027156882	
1998033350	-0.47887933775	-0.11634194147	
2004033300	-0.47714972965	-0.11509130857	
2010033250	-0.47422266563	-0.12317440561	
2016033200	-0.47149310097	-0.13181644057	
2022033150	-0.47204117739	-0.12681578001	
2028033100	-0.48084846574	-0.11425570008	
2034033050	-0.48524896692	-0.11146649984	
2040033000	-0.49165962342	-0.10974423031	
2046032950	-0.49941080184	-0.11024341355	
2052032900	-0.50548025251	-0.11337989256	
2058032850	-0.51090844894	-0.11533608627	
2064032800	-0.51784709103	-0.11839930077	
2070032750	-0.52246034607	-0.11952945082	
2076032700	-0.52995534350	-0.12138551355	
2082032650	-0.53628730826	-0.12417728899	
2088032600	-0.54029767968	-0.12613895936	
2094032550	-0.55570599659	-0.12270321980	
2100032500	-0.56542879016	-0.12260204071	
2106032450	-0.57486315869	-0.12029010871	
2112032400	-0.58291449802	-0.12054223572	
2118032350	-0.59248877261	-0.11880263931	
2124032300	-0.58998038633	-0.11527153758	
2130032250	-0.59501229912	-0.11226560285	
2136032200	-0.59827639628	-0.11192487286	
2142032150	-0.61154242421	-0.10703359454	
2148032100	-0.62316565991	-0.10226097388	
2154032050	-0.63211156839	-0.09922027171	
2160032000	-0.64009833111	-0.09617709768	
2166031950	-0.64899013230	-0.09262621820	
2172031900	-0.65793560657	-0.08825872309	
2178031850	-0.66623075664	-0.08481322444	
2184031800	-0.67484206988	-0.08111607928	
2190031750	-0.68140787116	-0.07899881573	
2196031700	-0.68737590549	-0.07576931354	
2202031650	-0.69410934130	-0.07390756395	
2208031600	-0.70168023112	-0.07335093205	
2214031550	-0.70935770335	-0.07130460986	
2220031500	-0.71010215833	-0.07179635558	
2226031450	-0.71210216806	-0.07179369463	
2232031400	-0.71094613256	-0.06979948010	
2238031350	-0.71542704085	-0.07358773561	
2244031300	-0.72674213649	-0.07810863632	
2250031250	-0.73780135388	-0.08333665490	
2256031200	-0.73387461590	-0.08503294479	
2262031150	-0.72862213228	-0.08127326061	
2268031100	-0.72725798261	-0.08073958149	
2274031050	-0.71968154828	-0.07672510821	
2280031000	-0.72149497058	-0.07538869243	
2286030950	-0.71717688189	-0.07274194794	
2292030900	-0.70955311656	-0.06441427904	
2298030850	-0.72081169070	-0.07017166634	
2304030800	-0.71984458847	-0.06788622106	
2310030750	-0.71644961237	-0.05775829538	
2316030700	-0.71349062063	-0.04884148417	
2322030650	-0.70440375080	-0.03169566375	
2328030600	-0.69730183203	-0.00872200722	
2334030550	-0.69584582690	0.00013915961	
2340030500	-0.69491836895	0.01324186439	
2346030450	-0.69410777646	0.02745948707	
2352030400	-0.69459641811	0.04080721025	
2358030350	-0.69314424706	0.05496010258	
2364030300	-0.69242414422	0.07116895869	
2370030250	-0.69174538769	0.08550749215	
2376030200	-0.69268673606	0.10093005886	
2382030150	-0.69231572831	0.11292803325	
2388030100	-0.69609604280	0.10391172650	
2394030050	-0.70975698614	0.08884419143	
2400030000	-0.71714934328	0.10196395149	
2406029950	-0.71294624167	0.11851675905	
2412029900	-0.70574362000	0.14090092949	
2418029850	-0.70208785003	0.15964606077	
2424029800	-0.70026882162	0.17402694675	
2430029750	-0.70044889479	0.18952760419	
2436029700	-0.69947396272	0.20769934045	
2442029650	-0.69807489289	0.22387893278	
2448029600	-0.69594899506	0.23840279261	
2454029550	-0.69567816335	0.25198654309	
2460029500	-0.69567308135	0.26268326863	
2466029450	-0.69638420456	0.27230543051	
2472029400	-0.69794618437	0.28049930176	
2478029350	-0.69931238325	0.28852868304	
2484029300	-0.70002936754	0.29645600834	
2490029250	-0.69854953108	0.30352760155	
2496029200	-0.69617000405	0.30748681590	
2502029150	-0.69543167234	0.31347002535	
2508029100	-0.69451724061	0.31866665942	
2514029050	-0.69090624753	0.32170046922	
2520029000	-0.68698325514	0.32463022338	
2526028950	-0.67922993110	0.32896388312	
2532028900	-0.67246722171	0.33341300101	
2538028850	-0.67119688008	0.33293947070	
2544028800	-0.66555472175	0.33332467887	
2550028750	-0.67112547410	0.33131668000	
2556028700	-0.67658038618	0.32841576892	
2562028650	-0.66938454402	0.33188504366	
2568028600	-0.66157371370	0.33413678262	
2574028550	-0.65818539221	0.33723791657	
2580028500	-0.64302971054	0.34151036317	
2586028450	-0.63290124242	0.34906777209	
2592028400	-0.62246995709	0.35353963088	
2598028350	-0.61574851130	0.35534053460	
2604028300	-0.60626258569	0.36341538189	
2610028250	-0.59481950868	0.37275428609	
2616028200	-0.58701755398	0.37891444688	
2622028150	-0.58329400526	0.38250289080	
2628028100	-0.57700703777	0.38809306569	
2634028050	-0.57170982762	0.39469054353	
2640028000	-0.56763296099	0.39953926091	
2646027950	-0.59166510531	0.36603314132	
2652027900	-0.61349472444	0.35298453507	
2658027850	-0.61136597919	0.35793222113	
2664027800	-0.60940869583	0.36920006320	
2670027750	-0.61344683295	0.37764717672	
2676027700	-0.60015770652	0.38602037664	
2682027650	-0.59396444223	0.39801729932	
2688027600	-0.58324009006	0.40113731437	
2694027550	-0.57407230512	0.41665834598	
2700027500	-0.56083596536	0.42636280523	
2706027450	-0.54320859084	0.44072619482	
2712027400	-0.52710719091	0.45375834916	
2718027350	-0.50054288248	0.46611390782	
2724027300	-0.49103953349	0.48509535686	
2730027250	-0.47462552685	0.49620591480	
2736027200	-0.46530319601	0.51064226334	
2742027150	-0.44964152375	0.52080437180	
2748027100	-0.44110886273	0.52995783052	
2754027050	-0.42744261997	0.54176642188	
2760027000	-0.41435003914	0.55062536294	
2766026950	-0.41154095357	0.55747281449	
2772026900	-0.40302220803	0.56769745456	
2778026850	-0.39670032524	0.57678929187	
2784026800	-0.39134524226	0.58485746623	
2790026750	-0.38788203890	0.58974096880	
2796026700	-0.38657012866	0.59361247145	
2802026650	-0.38457586486	0.59899933189	
2808026600	-0.38390244903	0.59781116383	
2814026550	-0.38098031361	0.60092717247	
2820026500	-0.37650957037	0.59503822494	
2826026450	-0.37035555937	0.59805019073	
2832026400	-0.37412752565	0.60372691889	
2838026350	-0.36931106458	0.60406596912	
2844026300	-0.37388910557	0.61224260133	
2850026250	-0.36375793404	0.60733876389	
2856026200	-0.35914831643	0.59805033142	
2862026150	-0.34740774341	0.58892665061	
2868026100	-0.34132737552	0.59143446553	
2874026050	-0.33012197541	0.58887417938	
2880026000	-0.32467694796	0.58470986854	
